"time","V_in","V_out"
0.0000000000000000E+000,0.0000000000000000E+000,0.0000000000000000E+000
1.0000000000000001E-001,5.0000000000000003E-002,0.0000000000000000E+000
2.0000000000000001E-001,1.0000000000000001E-001,0.0000000000000000E+000
3.0000000000000004E-001,1.5000000000000002E-001,5.0000000000000023E-004
4.0000000000000002E-001,2.0000000000000001E-001,1.9000000000000002E-003
5.0000000000000000E-001,2.5000000000000000E-001,4.5149999999999999E-003
5.9999999999999998E-001,2.9999999999999993E-001,8.5879999999999984E-003
6.9999999999999996E-001,3.4999999999999992E-001,1.4301249999999998E-002
7.9999999999999993E-001,3.9999999999999997E-001,2.1785969999999995E-002
8.9999999999999991E-001,4.4999999999999996E-001,3.1130733499999990E-002
9.9999999999999989E-001,4.9999999999999994E-001,4.2388684599999983E-002
1.0999999999999999E+000,5.4999999999999993E-001,5.5583738144999978E-002
1.2000000000000000E+000,5.9999999999999998E-001,7.0715894134999985E-002
1.3000000000000000E+000,6.5000000000000002E-001,8.7765781545549995E-002
1.4000000000000001E+000,7.0000000000000007E-001,1.0669853253264001E-001
1.5000000000000002E+000,7.5000000000000011E-001,1.2746707550685654E-001
1.6000000000000003E+000,8.0000000000000016E-001,1.5001492456090337E-001
1.7000000000000004E+000,8.5000000000000020E-001,1.7427853304907229E-001
1.8000000000000005E+000,9.0000000000000024E-001,2.0018927059399838E-001
1.9000000000000006E+000,9.5000000000000029E-001,2.2767507529944855E-001
2.0000000000000004E+000,1.0000000000000000E+000,2.5666182635786866E-001
2.1000000000000005E+000,1.0000000000000000E+000,2.8707447645161033E-001
2.2000000000000006E+000,1.0000000000000000E+000,3.1883797826302496E-001
2.3000000000000007E+000,1.0000000000000000E+000,3.5137803494764058E-001
2.4000000000000008E+000,1.0000000000000000E+000,3.8422170051270282E-001
2.5000000000000009E+000,1.0000000000000000E+000,4.1698285261527623E-001
2.6000000000000010E+000,1.0000000000000000E+000,4.4934955729220794E-001
2.7000000000000011E+000,1.0000000000000000E+000,4.8107309250760055E-001
2.8000000000000012E+000,1.0000000000000000E+000,5.1195842510699252E-001
2.9000000000000012E+000,1.0000000000000000E+000,5.4185596026143013E-001
3.0000000000000013E+000,1.0000000000000000E+000,5.7065440413391033E-001
3.1000000000000014E+000,1.0000000000000000E+000,5.9827459962928020E-001
3.2000000000000015E+000,1.0000000000000000E+000,6.2466421198423694E-001
3.3000000000000016E+000,1.0000000000000000E+000,6.4979315587190956E-001
3.4000000000000017E+000,1.0000000000000000E+000,6.7364966886220523E-001
3.5000000000000018E+000,1.0000000000000000E+000,6.9623694769572275E-001
3.6000000000000019E+000,1.0000000000000000E+000,7.1757027407391472E-001
3.7000000000000020E+000,1.0000000000000000E+000,7.3767456569951106E-001
3.8000000000000020E+000,1.0000000000000000E+000,7.5658229625924900E-001
3.9000000000000021E+000,1.0000000000000000E+000,7.7433173505004427E-001
4.0000000000000018E+000,1.0000000000000000E+000,7.9096546312008786E-001
4.1000000000000014E+000,1.0000000000000000E+000,8.0652912822562228E-001
4.2000000000000011E+000,1.0000000000000000E+000,8.2107040567884892E-001
4.3000000000000007E+000,1.0000000000000000E+000,8.3463813635917405E-001
4.4000000000000004E+000,1.0000000000000000E+000,8.4728161684664560E-001
4.5000000000000000E+000,1.0000000000000000E+000,8.5905001987303109E-001
4.5999999999999996E+000,1.0000000000000000E+000,8.6999192612567311E-001
4.6999999999999993E+000,1.0000000000000000E+000,8.8015495092905638E-001
4.7999999999999989E+000,1.0000000000000000E+000,8.8958545151050628E-001
4.8999999999999986E+000,1.0000000000000000E+000,8.9832830246637563E-001
4.9999999999999982E+000,1.0000000000000000E+000,9.0642672871596608E-001
5.0999999999999979E+000,1.0000000000000000E+000,9.1392218669097469E-001
5.1999999999999975E+000,1.0000000000000000E+000,9.2085428578382189E-001
5.2999999999999972E+000,1.0000000000000000E+000,9.2726074319118990E-001
5.3999999999999968E+000,1.0000000000000000E+000,9.3317736625924608E-001
5.4999999999999964E+000,1.0000000000000000E+000,9.3863805728177907E-001
5.5999999999999961E+000,1.0000000000000000E+000,9.4367483643721306E-001
5.6999999999999957E+000,1.0000000000000000E+000,9.4831787918874244E-001
5.7999999999999954E+000,1.0000000000000000E+000,9.5259556502559384E-001
5.8999999999999950E+000,1.0000000000000000E+000,9.5653453490318752E-001
5.9999999999999947E+000,1.0000000000000000E+000,9.6015975515500651E-001
6.0999999999999943E+000,1.0000000000000000E+000,9.6349458600742988E-001
6.1999999999999940E+000,1.0000000000000000E+000,9.6656085313781848E-001
6.2999999999999936E+000,1.0000000000000000E+000,9.6937892098205503E-001
6.3999999999999932E+000,1.0000000000000000E+000,9.7196776672606611E-001
6.4999999999999929E+000,1.0000000000000000E+000,9.7434505411145444E-001
6.5999999999999925E+000,1.0000000000000000E+000,9.7652720635250445E-001
6.6999999999999922E+000,1.0000000000000000E+000,9.7852947760422992E-001
6.7999999999999918E+000,1.0000000000000000E+000,9.8036602254208527E-001
6.8999999999999915E+000,1.0000000000000000E+000,9.8204996371632725E-001
6.9999999999999911E+000,1.0000000000000000E+000,9.8359345643029994E-001
7.0999999999999908E+000,1.0000000000000000E+000,9.8500775096431481E-001
7.1999999999999904E+000,1.0000000000000000E+000,9.8630325202722369E-001
7.2999999999999901E+000,1.0000000000000000E+000,9.8748957536790771E-001
7.3999999999999897E+000,1.0000000000000000E+000,9.8857560152018265E-001
7.4999999999999893E+000,1.0000000000000000E+000,9.8956952668832354E-001
7.5999999999999890E+000,1.0000000000000000E+000,9.9047891080763439E-001
7.6999999999999886E+000,1.0000000000000000E+000,9.9131072283619981E-001
7.7999999999999883E+000,1.0000000000000000E+000,9.9207138335097589E-001
7.8999999999999879E+000,1.0000000000000000E+000,9.9276680453443467E-001
7.9999999999999876E+000,1.0000000000000000E+000,9.9340242764769193E-001
8.0999999999999872E+000,1.0000000000000000E+000,9.9398325809295340E-001
8.1999999999999869E+000,1.0000000000000000E+000,9.9451389817268565E-001
8.2999999999999865E+000,1.0000000000000000E+000,9.9499857765554189E-001
8.3999999999999861E+000,1.0000000000000000E+000,9.9544118226010003E-001
8.4999999999999858E+000,1.0000000000000000E+000,9.9584528016719120E-001
8.5999999999999854E+000,1.0000000000000000E+000,9.9621414667026309E-001
8.6999999999999851E+000,1.0000000000000000E+000,9.9655078707104872E-001
8.7999999999999847E+000,1.0000000000000000E+000,9.9685795792497456E-001
8.8999999999999844E+000,1.0000000000000000E+000,9.9713818673740473E-001
8.9999999999999840E+000,1.0000000000000000E+000,9.9739379020809915E-001
9.0999999999999837E+000,1.0000000000000000E+000,9.9762689111728065E-001
9.1999999999999833E+000,1.0000000000000000E+000,9.9783943394254482E-001
9.2999999999999829E+000,1.0000000000000000E+000,9.9803319929158341E-001
9.3999999999999826E+000,1.0000000000000000E+000,9.9820981723138880E-001
9.4999999999999822E+000,1.0000000000000000E+000,9.9837077959031728E-001
9.5999999999999819E+000,1.0000000000000000E+000,9.9851745130514613E-001
9.6999999999999815E+000,1.0000000000000000E+000,9.9865108088110610E-001
9.7999999999999812E+000,1.0000000000000000E+000,9.9877281002882257E-001
9.8999999999999808E+000,1.0000000000000000E+000,9.9888368253818471E-001
9.9999999999999805E+000,1.0000000000000000E+000,9.9898465244538615E-001
1.0000000000000000E+001,1.0000000000000000E+000,9.9898465244538615E-001
